!ADT2-1T, Minicircuits Lab
!part is from MI96980
!Date: Tuesday, June 26, 2007 14:59:50
!Port 1: pin 1, port 2: pin 3, port 3: pin 6 and port 4: pin 4
# Hz S  dB   R 50
300000 -1.032644e+001 1.309181e+001 -3.096600e+000 -5.934199e+000 -7.535214e+000 -1.693281e+002 -7.627422e+000 1.089689e+001
 -3.081469e+000 -6.308484e+000 -1.031151e+001 1.373566e+001 -7.547208e+000 1.036372e+001 -7.647551e+000 -1.694227e+002
 -7.508744e+000 -1.692446e+002 -7.500509e+000 1.074329e+001 -7.363169e+000 1.504995e+002 -5.298728e+000 -1.757078e+002
 -7.618541e+000 1.056128e+001 -7.619380e+000 -1.693975e+002 -5.306503e+000 -1.760393e+002 -7.118226e+000 1.517296e+002
924812.5 -1.012247e+001 5.097638e+000 -3.330817e+000 -2.620371e+000 -7.327130e+000 -1.757701e+002 -7.397318e+000 4.592061e+000
 -3.334645e+000 -2.751622e+000 -1.014011e+001 5.335394e+000 -7.337608e+000 4.100480e+000 -7.410148e+000 -1.755426e+002
 -7.327238e+000 -1.757929e+002 -7.337053e+000 4.106008e+000 -1.009773e+001 1.519491e+002 -6.063430e+000 1.748294e+002
 -7.413502e+000 4.495607e+000 -7.422127e+000 -1.755962e+002 -6.081377e+000 1.747449e+002 -9.801286e+000 1.517772e+002
1549625 -1.004717e+001 3.678681e+000 -3.390468e+000 -2.047432e+000 -7.243961e+000 -1.768093e+002 -7.291049e+000 3.440870e+000
 -3.389231e+000 -2.113986e+000 -1.006837e+001 3.869664e+000 -7.253084e+000 3.059220e+000 -7.300309e+000 -1.766590e+002
 -7.233106e+000 -1.768167e+002 -7.246397e+000 3.117187e+000 -1.111629e+001 1.496819e+002 -6.418653e+000 1.723704e+002
 -7.300533e+000 3.367125e+000 -7.313499e+000 -1.766965e+002 -6.436369e+000 1.723045e+002 -1.088476e+001 1.494710e+002
2174437.5 -9.976467e+000 3.161026e+000 -3.426825e+000 -1.815119e+000 -7.167794e+000 -1.774027e+002 -7.206496e+000 2.785135e+000
 -3.427374e+000 -1.847535e+000 -1.000019e+001 3.252008e+000 -7.176373e+000 2.530541e+000 -7.218688e+000 -1.772625e+002
 -7.152917e+000 -1.774183e+002 -7.170922e+000 2.549937e+000 -1.187423e+001 1.460652e+002 -6.702241e+000 1.703395e+002
 -7.215609e+000 2.774264e+000 -7.229352e+000 -1.772664e+002 -6.719232e+000 1.703189e+002 -1.165684e+001 1.459420e+002
2799250 -9.935044e+000 2.672013e+000 -3.458363e+000 -1.660122e+000 -7.116153e+000 -1.778331e+002 -7.160700e+000 2.364808e+000
 -3.453240e+000 -1.684218e+000 -9.951190e+000 2.766746e+000 -7.121967e+000 2.103769e+000 -7.161489e+000 -1.777006e+002
 -7.100268e+000 -1.778682e+002 -7.115641e+000 2.098765e+000 -1.257903e+001 1.424367e+002 -6.996626e+000 1.687344e+002
 -7.160924e+000 2.333917e+000 -7.172547e+000 -1.776965e+002 -7.014627e+000 1.687341e+002 -1.236260e+001 1.424097e+002
3424062.5 -9.894441e+000 2.337593e+000 -3.474292e+000 -1.548054e+000 -7.078967e+000 -1.781889e+002 -7.118605e+000 2.004411e+000
 -3.472957e+000 -1.589366e+000 -9.917747e+000 2.426532e+000 -7.079621e+000 1.751318e+000 -7.118845e+000 -1.780405e+002
 -7.063957e+000 -1.782281e+002 -7.076621e+000 1.740545e+000 -1.325396e+001 1.389774e+002 -7.293132e+000 1.674934e+002
 -7.116648e+000 1.991107e+000 -7.128232e+000 -1.780486e+002 -7.307255e+000 1.675257e+002 -1.302919e+001 1.389938e+002
4048875 -9.869041e+000 2.055288e+000 -3.486722e+000 -1.482613e+000 -7.055043e+000 -1.784790e+002 -7.088636e+000 1.701485e+000
 -3.488493e+000 -1.507039e+000 -9.890166e+000 2.175016e+000 -7.054367e+000 1.453628e+000 -7.087922e+000 -1.783547e+002
 -7.038642e+000 -1.785063e+002 -7.047191e+000 1.449464e+000 -1.390912e+001 1.359030e+002 -7.587712e+000 1.666286e+002
 -7.083790e+000 1.696475e+000 -7.093368e+000 -1.783466e+002 -7.601439e+000 1.666601e+002 -1.368964e+001 1.359193e+002
4673687.5 -9.846796e+000 1.835461e+000 -3.500221e+000 -1.437070e+000 -7.033424e+000 -1.787557e+002 -7.063451e+000 1.445208e+000
 -3.498440e+000 -1.440861e+000 -9.872401e+000 1.901165e+000 -7.035671e+000 1.216084e+000 -7.066851e+000 -1.785917e+002
 -7.019431e+000 -1.787685e+002 -7.030792e+000 1.184393e+000 -1.456810e+001 1.332464e+002 -7.870029e+000 1.661096e+002
 -7.063485e+000 1.435371e+000 -7.075839e+000 -1.785890e+002 -7.883964e+000 1.661395e+002 -1.433911e+001 1.332397e+002
5298500 -9.829391e+000 1.617821e+000 -3.507203e+000 -1.403283e+000 -7.017760e+000 -1.789464e+002 -7.046230e+000 1.232424e+000
 -3.506501e+000 -1.414095e+000 -9.850853e+000 1.738659e+000 -7.021278e+000 9.901072e-001 -7.050037e+000 -1.788087e+002
 -7.004907e+000 -1.789709e+002 -7.017625e+000 9.647024e-001 -1.520439e+001 1.308953e+002 -8.135065e+000 1.658433e+002
 -7.045016e+000 1.222145e+000 -7.058374e+000 -1.788172e+002 -8.146369e+000 1.658646e+002 -1.497498e+001 1.308876e+002
5923312.5 -9.820933e+000 1.476759e+000 -3.509335e+000 -1.376670e+000 -7.005672e+000 -1.791493e+002 -7.032185e+000 1.025401e+000
 -3.509123e+000 -1.393913e+000 -9.839249e+000 1.583684e+000 -7.007869e+000 8.141910e-001 -7.033928e+000 -1.790131e+002
 -6.989836e+000 -1.791807e+002 -7.000447e+000 7.944693e-001 -1.581466e+001 1.289476e+002 -8.376691e+000 1.657889e+002
 -7.028223e+000 1.024213e+000 -7.039001e+000 -1.790057e+002 -8.387155e+000 1.658167e+002 -1.558747e+001 1.289165e+002
6548125 -9.807417e+000 1.340829e+000 -3.516639e+000 -1.370404e+000 -6.997715e+000 -1.793214e+002 -7.023898e+000 8.545889e-001
 -3.516100e+000 -1.391324e+000 -9.827554e+000 1.448412e+000 -6.999947e+000 6.288451e-001 -7.024485e+000 -1.791832e+002
 -6.986410e+000 -1.793467e+002 -6.999112e+000 6.209955e-001 -1.642585e+001 1.272014e+002 -8.599553e+000 1.659107e+002
 -7.022276e+000 8.539262e-001 -7.032959e+000 -1.791800e+002 -8.608410e+000 1.659241e+002 -1.619801e+001 1.271825e+002
7172937.5 -9.803319e+000 1.212853e+000 -3.520561e+000 -1.368029e+000 -6.990305e+000 -1.794723e+002 -7.015626e+000 6.790045e-001
 -3.516961e+000 -1.406054e+000 -9.819439e+000 1.322820e+000 -6.995893e+000 4.791886e-001 -7.018238e+000 -1.793440e+002
 -6.977897e+000 -1.795094e+002 -6.994144e+000 4.664991e-001 -1.700479e+001 1.258356e+002 -8.797065e+000 1.661342e+002
 -7.012369e+000 6.783879e-001 -7.025743e+000 -1.793464e+002 -8.804722e+000 1.661631e+002 -1.677890e+001 1.258166e+002
7797750 -9.797256e+000 1.133526e+000 -3.520079e+000 -1.382649e+000 -6.984083e+000 -1.796289e+002 -7.008074e+000 5.308869e-001
 -3.519646e+000 -1.400954e+000 -9.813591e+000 1.243103e+000 -6.988656e+000 3.292790e-001 -7.009546e+000 -1.794998e+002
 -6.969867e+000 -1.796446e+002 -6.982677e+000 3.295350e-001 -1.755456e+001 1.247116e+002 -8.971330e+000 1.664704e+002
 -7.001794e+000 5.348454e-001 -7.013165e+000 -1.794878e+002 -8.978494e+000 1.664885e+002 -1.733080e+001 1.247110e+002
8422562.5 -9.789831e+000 1.045412e+000 -3.522691e+000 -1.406647e+000 -6.978951e+000 -1.797571e+002 -7.003498e+000 3.846405e-001
 -3.520825e+000 -1.424114e+000 -9.807469e+000 1.144322e+000 -6.986345e+000 2.062005e-001 -7.005287e+000 -1.796306e+002
 -6.965442e+000 -1.797829e+002 -6.982407e+000 2.046441e-001 -1.809945e+001 1.238346e+002 -9.127151e+000 1.668745e+002
 -6.996153e+000 3.854555e-001 -7.011576e+000 -1.796189e+002 -9.133490e+000 1.668880e+002 -1.787299e+001 1.238570e+002
9047375 -9.783621e+000 9.604070e-001 -3.524076e+000 -1.437217e+000 -6.975739e+000 -1.798867e+002 -7.000093e+000 2.572005e-001
 -3.523146e+000 -1.445125e+000 -9.803922e+000 1.052930e+000 -6.982358e+000 8.630034e-002 -7.001407e+000 -1.797480e+002
 -6.964191e+000 -1.798930e+002 -6.978888e+000 6.987756e-002 -1.861501e+001 1.232249e+002 -9.261841e+000 1.673066e+002
 -6.994819e+000 2.744047e-001 -7.007967e+000 -1.797517e+002 -9.265427e+000 1.673329e+002 -1.838713e+001 1.231979e+002
9672187.5 -9.780582e+000 8.929191e-001 -3.525594e+000 -1.463352e+000 -6.974707e+000 1.799971e+002 -6.996678e+000 1.362960e-001
 -3.522941e+000 -1.467141e+000 -9.803716e+000 9.849020e-001 -6.979918e+000 -2.388841e-002 -6.995887e+000 -1.798635e+002
 -6.960604e+000 1.799759e+002 -6.974814e+000 -5.491698e-002 -1.910324e+001 1.227541e+002 -9.380957e+000 1.677643e+002
 -6.991542e+000 1.368833e-001 -7.002319e+000 -1.798633e+002 -9.387174e+000 1.677887e+002 -1.888200e+001 1.227381e+002
10297000 -9.773534e+000 8.053733e-001 -3.527098e+000 -1.487764e+000 -6.971524e+000 1.798788e+002 -6.994855e+000 2.551047e-002
 -3.528156e+000 -1.497561e+000 -9.795745e+000 8.781405e-001 -6.979503e+000 -1.454161e-001 -6.996757e+000 -1.799706e+002
 -6.961392e+000 1.798484e+002 -6.975685e+000 -1.541723e-001 -1.957947e+001 1.224281e+002 -9.484398e+000 1.682495e+002
 -6.991075e+000 1.748020e-002 -7.002633e+000 -1.799754e+002 -9.489870e+000 1.682540e+002 -1.935588e+001 1.224282e+002
10921812.5 -9.769785e+000 7.449391e-001 -3.527621e+000 -1.516433e+000 -6.971807e+000 1.797670e+002 -6.994152e+000 -7.205912e-002
 -3.528434e+000 -1.525720e+000 -9.795306e+000 8.308005e-001 -6.976964e+000 -2.498172e-001 -6.994950e+000 1.799143e+002
 -6.960442e+000 1.797538e+002 -6.971588e+000 -2.591195e-001 -2.002948e+001 1.224028e+002 -9.575989e+000 1.687120e+002
 -6.988647e+000 -7.530610e-002 -6.998481e+000 1.799219e+002 -9.580981e+000 1.687271e+002 -1.980407e+001 1.223210e+002
11546625 -9.764632e+000 6.837887e-001 -3.529670e+000 -1.553084e+000 -6.972159e+000 1.796785e+002 -6.992843e+000 -1.896822e-001
 -3.528865e+000 -1.559825e+000 -9.792259e+000 7.701057e-001 -6.976979e+000 -3.391238e-001 -6.990334e+000 1.798145e+002
 -6.958907e+000 1.796515e+002 -6.970562e+000 -3.516048e-001 -2.045162e+001 1.223659e+002 -9.652581e+000 1.691581e+002
 -6.988880e+000 -1.839691e-001 -6.997328e+000 1.798271e+002 -9.658872e+000 1.691845e+002 -2.022669e+001 1.223258e+002
12171437.5 -9.760950e+000 6.490787e-001 -3.530083e+000 -1.584726e+000 -6.971667e+000 1.795812e+002 -6.993399e+000 -2.699822e-001
 -3.528939e+000 -1.595914e+000 -9.789169e+000 7.102069e-001 -6.975649e+000 -4.209403e-001 -6.991540e+000 1.797307e+002
 -6.959599e+000 1.795652e+002 -6.970119e+000 -4.426693e-001 -2.086226e+001 1.224413e+002 -9.723103e+000 1.696203e+002
 -6.988354e+000 -2.801199e-001 -6.995066e+000 1.797287e+002 -9.725767e+000 1.696512e+002 -2.064530e+001 1.223747e+002
12796250 -9.760915e+000 5.946093e-001 -3.529463e+000 -1.627313e+000 -6.970803e+000 1.795052e+002 -6.991203e+000 -3.530156e-001
 -3.530587e+000 -1.630209e+000 -9.787830e+000 6.490353e-001 -6.978156e+000 -5.031183e-001 -6.990905e+000 1.796537e+002
 -6.958514e+000 1.794722e+002 -6.971122e+000 -5.297993e-001 -2.125626e+001 1.226994e+002 -9.780658e+000 1.700696e+002
 -6.986970e+000 -3.690680e-001 -6.994737e+000 1.796453e+002 -9.785468e+000 1.700874e+002 -2.104049e+001 1.226193e+002
13421062.5 -9.759936e+000 5.280839e-001 -3.531546e+000 -1.667242e+000 -6.970600e+000 1.794189e+002 -6.991375e+000 -4.480805e-001
 -3.531303e+000 -1.669757e+000 -9.785214e+000 6.105664e-001 -6.978811e+000 -6.021716e-001 -6.991320e+000 1.795658e+002
 -6.958303e+000 1.793941e+002 -6.973541e+000 -6.219280e-001 -2.162691e+001 1.229899e+002 -9.826972e+000 1.704803e+002
 -6.987464e+000 -4.563504e-001 -6.995845e+000 1.795620e+002 -9.829955e+000 1.705109e+002 -2.141251e+001 1.229182e+002
14045875 -9.756423e+000 4.850520e-001 -3.530492e+000 -1.714340e+000 -6.971060e+000 1.793341e+002 -6.990865e+000 -5.131771e-001
 -3.530427e+000 -1.723854e+000 -9.783979e+000 5.736542e-001 -6.977726e+000 -6.709729e-001 -6.988156e+000 1.794911e+002
 -6.960077e+000 1.793151e+002 -6.971509e+000 -6.890568e-001 -2.199147e+001 1.234538e+002 -9.870188e+000 1.708850e+002
 -6.987222e+000 -5.192392e-001 -6.994126e+000 1.794957e+002 -9.873580e+000 1.708955e+002 -2.177665e+001 1.233510e+002
14670687.5 -9.755073e+000 4.535602e-001 -3.530320e+000 -1.760189e+000 -6.970641e+000 1.792646e+002 -6.992356e+000 -5.909297e-001
 -3.531163e+000 -1.758955e+000 -9.781352e+000 5.298719e-001 -6.978209e+000 -7.494704e-001 -6.991189e+000 1.794189e+002
 -6.960209e+000 1.792460e+002 -6.973494e+000 -7.721385e-001 -2.232292e+001 1.239613e+002 -9.907784e+000 1.712681e+002
 -6.987272e+000 -5.939483e-001 -6.994485e+000 1.794187e+002 -9.907965e+000 1.712893e+002 -2.211592e+001 1.238639e+002
15295500 -9.756984e+000 4.085796e-001 -3.530266e+000 -1.803965e+000 -6.971756e+000 1.791896e+002 -6.991340e+000 -6.666969e-001
 -3.531385e+000 -1.811864e+000 -9.779672e+000 4.695933e-001 -6.979588e+000 -8.251782e-001 -6.991518e+000 1.793482e+002
 -6.961516e+000 1.791623e+002 -6.975362e+000 -8.442544e-001 -2.263559e+001 1.246073e+002 -9.939399e+000 1.716407e+002
 -6.987491e+000 -6.839641e-001 -6.994500e+000 1.793359e+002 -9.941278e+000 1.716544e+002 -2.242727e+001 1.244751e+002
15920312.5 -9.755367e+000 3.761500e-001 -3.531728e+000 -1.837417e+000 -6.971420e+000 1.791175e+002 -6.992138e+000 -7.422082e-001
 -3.531115e+000 -1.852269e+000 -9.779428e+000 4.369856e-001 -6.981169e+000 -8.929552e-001 -6.991767e+000 1.792730e+002
 -6.960845e+000 1.790929e+002 -6.977201e+000 -9.011390e-001 -2.293254e+001 1.253273e+002 -9.962003e+000 1.719871e+002
 -6.988042e+000 -7.496384e-001 -6.995273e+000 1.792749e+002 -9.966299e+000 1.720105e+002 -2.273062e+001 1.251163e+002
16545125 -9.753699e+000 3.530357e-001 -3.531953e+000 -1.890136e+000 -6.970685e+000 1.790333e+002 -6.989712e+000 -8.245953e-001
 -3.531833e+000 -1.896344e+000 -9.774562e+000 3.882938e-001 -6.983388e+000 -9.657269e-001 -6.990464e+000 1.792082e+002
 -6.960815e+000 1.790176e+002 -6.977699e+000 -9.947890e-001 -2.320597e+001 1.260337e+002 -9.984728e+000 1.723344e+002
 -6.987846e+000 -8.283631e-001 -6.995462e+000 1.791990e+002 -9.987653e+000 1.723575e+002 -2.300860e+001 1.258307e+002
17169937.5 -9.750752e+000 3.308651e-001 -3.530990e+000 -1.929855e+000 -6.971781e+000 1.789581e+002 -6.991326e+000 -8.914125e-001
 -3.531271e+000 -1.949826e+000 -9.773208e+000 3.698475e-001 -6.983483e+000 -1.035190e+000 -6.991437e+000 1.791276e+002
 -6.961813e+000 1.789490e+002 -6.978778e+000 -1.047356e+000 -2.347566e+001 1.268979e+002 -1.000045e+001 1.726565e+002
 -6.989962e+000 -8.961056e-001 -6.995099e+000 1.791235e+002 -1.000386e+001 1.726663e+002 -2.327529e+001 1.266458e+002
17794750 -9.752209e+000 2.598176e-001 -3.529696e+000 -1.984540e+000 -6.969943e+000 1.788962e+002 -6.991483e+000 -9.614540e-001
 -3.530258e+000 -1.994166e+000 -9.771481e+000 3.388841e-001 -6.983831e+000 -1.114120e+000 -6.991470e+000 1.790561e+002
 -6.959272e+000 1.788843e+002 -6.979055e+000 -1.123732e+000 -2.370608e+001 1.277965e+002 -1.001439e+001 1.729517e+002
 -6.987136e+000 -9.650699e-001 -6.995728e+000 1.790565e+002 -1.001708e+001 1.729722e+002 -2.352000e+001 1.275285e+002
18419562.5 -9.751010e+000 2.568819e-001 -3.530732e+000 -2.030032e+000 -6.970676e+000 1.788375e+002 -6.992691e+000 -1.027261e+000
 -3.531816e+000 -2.029307e+000 -9.769539e+000 3.149351e-001 -6.985805e+000 -1.172744e+000 -6.992987e+000 1.789889e+002
 -6.961893e+000 1.788210e+002 -6.980418e+000 -1.195479e+000 -2.392882e+001 1.286614e+002 -1.002383e+001 1.732272e+002
 -6.988048e+000 -1.022326e+000 -6.996789e+000 1.789969e+002 -1.002926e+001 1.732544e+002 -2.375028e+001 1.283764e+002
19044375 -9.749678e+000 2.315613e-001 -3.531075e+000 -2.074303e+000 -6.972264e+000 1.787584e+002 -6.992785e+000 -1.089324e+000
 -3.531409e+000 -2.087446e+000 -9.769404e+000 2.895151e-001 -6.985653e+000 -1.245461e+000 -6.992368e+000 1.789223e+002
 -6.961054e+000 1.787430e+002 -6.982011e+000 -1.264640e+000 -2.413074e+001 1.296284e+002 -1.003446e+001 1.735030e+002
 -6.987830e+000 -1.097199e+000 -6.996127e+000 1.789227e+002 -1.003837e+001 1.735127e+002 -2.394734e+001 1.293203e+002
19669187.5 -9.743480e+000 1.838086e-001 -3.531333e+000 -2.127485e+000 -6.972350e+000 1.786907e+002 -6.994237e+000 -1.155683e+000
 -3.530300e+000 -2.137573e+000 -9.766175e+000 2.617558e-001 -6.985361e+000 -1.319903e+000 -6.991790e+000 1.788626e+002
 -6.962052e+000 1.786640e+002 -6.983412e+000 -1.337964e+000 -2.431250e+001 1.305877e+002 -1.003665e+001 1.737638e+002
 -6.988893e+000 -1.172385e+000 -6.997433e+000 1.788556e+002 -1.004260e+001 1.737747e+002 -2.414426e+001 1.302146e+002
20294000 -9.745318e+000 1.742820e-001 -3.531030e+000 -2.178891e+000 -6.973265e+000 1.786183e+002 -6.992246e+000 -1.231201e+000
 -3.529275e+000 -2.178518e+000 -9.767979e+000 2.390403e-001 -6.985902e+000 -1.372257e+000 -6.990018e+000 1.787992e+002
 -6.962866e+000 1.785957e+002 -6.981886e+000 -1.396879e+000 -2.445629e+001 1.316054e+002 -1.004198e+001 1.740025e+002
 -6.990459e+000 -1.241086e+000 -6.996869e+000 1.787900e+002 -1.004689e+001 1.740218e+002 -2.429815e+001 1.312550e+002
20918812.5 -9.744734e+000 1.477233e-001 -3.531109e+000 -2.226820e+000 -6.972710e+000 1.785546e+002 -6.993363e+000 -1.296228e+000
 -3.528700e+000 -2.227798e+000 -9.764898e+000 2.071333e-001 -6.988616e+000 -1.436319e+000 -6.991946e+000 1.787391e+002
 -6.961293e+000 1.785305e+002 -6.984068e+000 -1.464933e+000 -2.460655e+001 1.325454e+002 -1.004111e+001 1.742241e+002
 -6.990350e+000 -1.299283e+000 -6.997770e+000 1.787269e+002 -1.004709e+001 1.742271e+002 -2.445669e+001 1.321582e+002
21543625 -9.741356e+000 1.239180e-001 -3.531102e+000 -2.266977e+000 -6.971943e+000 1.784938e+002 -6.995697e+000 -1.354948e+000
 -3.528701e+000 -2.273818e+000 -9.765218e+000 1.954709e-001 -6.985158e+000 -1.505007e+000 -6.991288e+000 1.786579e+002
 -6.961237e+000 1.784727e+002 -6.984568e+000 -1.526195e+000 -2.473038e+001 1.335426e+002 -1.004253e+001 1.744281e+002
 -6.991322e+000 -1.358496e+000 -6.997405e+000 1.786595e+002 -1.004662e+001 1.744487e+002 -2.458860e+001 1.331777e+002
22168437.5 -9.740428e+000 9.550087e-002 -3.530743e+000 -2.326339e+000 -6.973444e+000 1.784188e+002 -6.995628e+000 -1.420985e+000
 -3.527824e+000 -2.325519e+000 -9.760948e+000 1.633527e-001 -6.988863e+000 -1.570768e+000 -6.993528e+000 1.786203e+002
 -6.963156e+000 1.784097e+002 -6.986049e+000 -1.589572e+000 -2.485390e+001 1.345492e+002 -1.003866e+001 1.746182e+002
 -6.992016e+000 -1.417633e+000 -6.998240e+000 1.786121e+002 -1.004413e+001 1.746254e+002 -2.471393e+001 1.341559e+002
22793250 -9.739919e+000 7.733218e-002 -3.531436e+000 -2.365564e+000 -6.973296e+000 1.783693e+002 -6.994672e+000 -1.470394e+000
 -3.527931e+000 -2.382856e+000 -9.762207e+000 1.572913e-001 -6.988225e+000 -1.636482e+000 -6.991665e+000 1.785521e+002
 -6.963337e+000 1.783441e+002 -6.985792e+000 -1.650705e+000 -2.492774e+001 1.354900e+002 -1.003661e+001 1.748156e+002
 -6.992850e+000 -1.484680e+000 -6.998102e+000 1.785392e+002 -1.004185e+001 1.748226e+002 -2.480153e+001 1.350916e+002
23418062.5 -9.738963e+000 4.367085e-002 -3.528945e+000 -2.422452e+000 -6.973281e+000 1.783066e+002 -6.996110e+000 -1.534852e+000
 -3.529688e+000 -2.433032e+000 -9.760135e+000 1.407172e-001 -6.990605e+000 -1.699042e+000 -6.993858e+000 1.784928e+002
 -6.963353e+000 1.782862e+002 -6.988844e+000 -1.707746e+000 -2.501844e+001 1.364220e+002 -1.003247e+001 1.749661e+002
 -6.993604e+000 -1.537892e+000 -6.998089e+000 1.784912e+002 -1.003616e+001 1.749804e+002 -2.489386e+001 1.360420e+002
24042875 -9.735701e+000 2.572737e-002 -3.529428e+000 -2.478089e+000 -6.974162e+000 1.782430e+002 -6.997681e+000 -1.597237e+000
 -3.528474e+000 -2.480218e+000 -9.758138e+000 1.123380e-001 -6.990924e+000 -1.760776e+000 -6.992455e+000 1.784257e+002
 -6.965098e+000 1.782242e+002 -6.988537e+000 -1.781209e+000 -2.508265e+001 1.372876e+002 -1.002466e+001 1.751291e+002
 -6.995707e+000 -1.603884e+000 -6.999955e+000 1.784182e+002 -1.003202e+001 1.751424e+002 -2.497712e+001 1.369128e+002
24667687.5 -9.736718e+000 1.214206e-002 -3.529838e+000 -2.526997e+000 -6.975347e+000 1.781832e+002 -6.997675e+000 -1.655102e+000
 -3.527813e+000 -2.528799e+000 -9.758682e+000 9.831618e-002 -6.991240e+000 -1.809440e+000 -6.992240e+000 1.783760e+002
 -6.964791e+000 1.781713e+002 -6.989565e+000 -1.828625e+000 -2.513385e+001 1.382530e+002 -1.002036e+001 1.752684e+002
 -6.995626e+000 -1.655072e+000 -6.998937e+000 1.783677e+002 -1.002844e+001 1.752785e+002 -2.503617e+001 1.378667e+002
25292500 -9.733675e+000 1.005520e-002 -3.529237e+000 -2.573501e+000 -6.975766e+000 1.781216e+002 -6.999997e+000 -1.720904e+000
 -3.527086e+000 -2.584124e+000 -9.757514e+000 8.864591e-002 -6.994382e+000 -1.874193e+000 -6.993846e+000 1.783175e+002
 -6.965495e+000 1.781163e+002 -6.990593e+000 -1.882137e+000 -2.517677e+001 1.390316e+002 -1.001437e+001 1.754001e+002
 -6.996128e+000 -1.718878e+000 -6.999965e+000 1.783110e+002 -1.001912e+001 1.754092e+002 -2.508620e+001 1.386576e+002
